T1284 000:003.739   SEGGER J-Link V7.58e Log File
T1284 000:003.821   DLL Compiled: Dec  7 2021 17:24:52
T1284 000:003.826   Logging started @ 2026-05-13 15:04
T1284 000:003.830 - 3.833ms
T1284 000:003.837 JLINK_SetWarnOutHandler(...)
T1284 000:003.843 - 0.007ms
T1284 000:003.848 JLINK_OpenEx(...)
T1284 000:006.267   Firmware: J-Link Pro V4 V12 PLUS Jul compiled 21 2025 13:15:53 
T1284 000:006.505   Firmware: J-Link Pro V4 V12 PLUS Jul compiled 21 2025 13:15:53 
T1284 000:006.617   Decompressing FW timestamp took 86 us
T1284 000:016.082   Hardware: V12.00
T1284 000:016.098   S/N: 601022971
T1284 000:016.107   OEM: SEGGER
T1284 000:016.116   Feature(s): FlashBP, GDB, JFlash, FlashDL, RDI
T1284 000:016.814   TELNET listener socket opened on port 19021
T1284 000:016.950   WEBSRV WEBSRV_Init(): Starting webserver thread(s)
T1284 000:017.050   WEBSRV Webserver running on local port 19080
T1284 000:021.069 - 17.231ms returns "O.K."
T1284 000:021.091 JLINK_GetEmuCaps()
T1284 000:021.096 - 0.006ms returns 0xB9FF7BBF
T1284 000:021.103 JLINK_TIF_GetAvailable(...)
T1284 000:021.221 - 0.125ms
T1284 000:021.237 JLINK_SetErrorOutHandler(...)
T1284 000:021.243 - 0.009ms
T1284 000:021.266 JLINK_ExecCommand("ProjectFile = "D:\Desktop\Project\software\LIB\MotorControl\MC_LIB\5_PRO\5_SQ_260101_GD32E230\JLinkSettings.ini"", ...). 
T1284 000:027.239   Ref file found at: C:\Keil_v5\ARM\Segger\JLinkDevices.ref
T1284 000:027.314   XML referenced by ref file: C:\Program Files\SEGGER\JLink\JLinkDevices.xml
T1284 000:027.835   C:\Program Files\SEGGER\JLink\JLinkDevices.xml evaluated successfully.
T1284 000:052.475   Device "CORTEX-M0" selected.
T1284 000:052.691 - 31.433ms returns 0x00
T1284 000:054.604 JLINK_ExecCommand("Device = GD32E230C8", ...). 
T1284 000:056.441   Device "GD32E230C8" selected.
T1284 000:056.628 - 2.017ms returns 0x00
T1284 000:056.637 JLINK_ExecCommand("DisableConnectionTimeout", ...). 
T1284 000:056.645 - 0.003ms returns 0x01
T1284 000:056.650 JLINK_GetHardwareVersion()
T1284 000:056.654 - 0.006ms returns 120000
T1284 000:056.663 JLINK_GetDLLVersion()
T1284 000:056.667 - 0.006ms returns 75805
T1284 000:056.672 JLINK_GetOEMString(...)
T1284 000:056.677 JLINK_GetFirmwareString(...)
T1284 000:056.681 - 0.006ms
T1284 000:061.902 JLINK_GetDLLVersion()
T1284 000:061.911 - 0.011ms returns 75805
T1284 000:061.917 JLINK_GetCompileDateTime()
T1284 000:061.921 - 0.006ms
T1284 000:063.621 JLINK_GetFirmwareString(...)
T1284 000:063.630 - 0.010ms
T1284 000:065.331 JLINK_GetHardwareVersion()
T1284 000:065.339 - 0.010ms returns 120000
T1284 000:067.026 JLINK_GetSN()
T1284 000:067.034 - 0.010ms returns 601022971
T1284 000:068.720 JLINK_GetOEMString(...)
T1284 000:072.200 JLINK_TIF_Select(JLINKARM_TIF_SWD)
T1284 000:072.684 - 0.490ms returns 0x00
T1284 000:072.695 JLINK_HasError()
T1284 000:072.708 JLINK_SetSpeed(2000)
T1284 000:072.779 - 0.075ms
T1284 000:072.789 JLINK_GetId()
T1284 000:075.116   Found SW-DP with ID 0x0BF11477
T1284 000:079.430   DPIDR: 0x0BF11477
T1284 000:081.139   CoreSight SoC-400 or earlier
T1284 000:082.858   Scanning AP map to find all available APs
T1284 000:085.094   AP[1]: Stopped AP scan as end of AP map has been reached
T1284 000:086.824   AP[0]: AHB-AP (IDR: 0x04770025)
T1284 000:088.558   Iterating through AP map to find AHB-AP to use
T1284 000:091.040   AP[0]: Core found
T1284 000:092.789   AP[0]: AHB-AP ROM base: 0xE00FF000
T1284 000:095.296   CPUID register: 0x411CD200. Implementer code: 0x41 (ARM)
T1284 000:097.030   Feature set: Baseline
T1284 000:098.758   Found Cortex-M23 r1p0, Little endian.
T1284 000:199.633   -- Max. mem block: 0x00005B10
T1284 000:200.020   CPU_ReadMem(4 bytes @ 0xE000EDF0)
T1284 000:200.507   CPU_WriteMem(4 bytes @ 0xE000EDF0)
T1284 000:200.810   CPU_ReadMem(4 bytes @ 0xE0002000)
T1284 000:203.460   FPUnit: 4 code (BP) slots and 0 literal slots
T1284 000:203.472   CPU_ReadMem(4 bytes @ 0xE000EDFC)
T1284 000:203.746   CPU_WriteMem(4 bytes @ 0xE000EDFC)
T1284 000:204.036   CPU_ReadMem(4 bytes @ 0xE0001000)
T1284 000:204.312   CPU_ReadMem(4 bytes @ 0xE0001000)
T1284 000:204.641   CPU_ReadMem(4 bytes @ 0xE0001028)
T1284 000:204.908   CPU_ReadMem(4 bytes @ 0xE0001038)
T1284 000:205.179   CPU_WriteMem(4 bytes @ 0xE0001000)
T1284 000:205.456   CPU_ReadMem(4 bytes @ 0xE000ED88)
T1284 000:205.726   CPU_WriteMem(4 bytes @ 0xE000ED88)
T1284 000:206.015   CPU_ReadMem(4 bytes @ 0xE000ED88)
T1284 000:206.286   CPU_WriteMem(4 bytes @ 0xE000ED88)
T1284 000:206.580   CPU_ReadMem(4 bytes @ 0xE000EFB8)
T1284 000:208.860   Security extension: not implemented
T1284 000:210.572   CoreSight components:
T1284 000:212.269   ROMTbl[0] @ E00FF000
T1284 000:212.280   CPU_ReadMem(64 bytes @ 0xE00FF000)
T1284 000:212.977   CPU_ReadMem(32 bytes @ 0xE000EFE0)
T1284 000:213.448   CPU_ReadMem(4 bytes @ 0xE000EFBC)
T1284 000:213.709   CPU_ReadMem(4 bytes @ 0xE000EFCC)
T1284 000:215.691   [0][0]: E000E000 CID B105900D PID 000BBD20 DEVARCH 47702A04 DEVTYPE 00 Cortex-M23
T1284 000:215.703   CPU_ReadMem(32 bytes @ 0xE0001FE0)
T1284 000:216.169   CPU_ReadMem(4 bytes @ 0xE0001FBC)
T1284 000:216.427   CPU_ReadMem(4 bytes @ 0xE0001FCC)
T1284 000:218.430   [0][1]: E0001000 CID B105900D PID 000BBD20 DEVARCH 47701A02 DEVTYPE 00 DWT
T1284 000:218.443   CPU_ReadMem(32 bytes @ 0xE0002FE0)
T1284 000:218.928   CPU_ReadMem(4 bytes @ 0xE0002FBC)
T1284 000:219.199   CPU_ReadMem(4 bytes @ 0xE0002FCC)
T1284 000:221.192   [0][2]: E0002000 CID B105900D PID 000BBD20 DEVARCH 47701A03 DEVTYPE 00 FPB
T1284 000:221.368 - 148.587ms returns 0x0BF11477
T1284 000:221.388 JLINK_GetDLLVersion()
T1284 000:221.394 - 0.009ms returns 75805
T1284 000:221.403 JLINK_CORE_GetFound()
T1284 000:221.408 - 0.008ms returns 0x60100FF
T1284 000:221.416 JLINK_GetDebugInfo(0x100 = JLINKARM_ROM_TABLE_ADDR_INDEX)
T1284 000:221.423   Value=0xE00FF000
T1284 000:221.432 - 0.018ms returns 0
T1284 000:223.648 JLINK_GetDebugInfo(0x100 = JLINKARM_ROM_TABLE_ADDR_INDEX)
T1284 000:223.657   Value=0xE00FF000
T1284 000:223.663 - 0.017ms returns 0
T1284 000:223.669 JLINK_GetDebugInfo(0x101 = JLINKARM_DEBUG_INFO_ETM_ADDR_INDEX)
T1284 000:223.674   Value=0x00000000
T1284 000:223.680 - 0.013ms returns 0
T1284 000:223.688 JLINK_ReadMemEx(0xE0041FF0, 0x10 Bytes, Flags = 0x02000004)
T1284 000:223.705   CPU_ReadMem(16 bytes @ 0xE0041FF0)
T1284 000:224.096   failed
T1284 000:224.113 - 0.428ms returns -1 (0xFFFFFFFF)
T1284 000:224.124 JLINK_GetDebugInfo(0x102 = JLINKARM_DEBUG_INFO_MTB_ADDR_INDEX)
T1284 000:224.130   Value=0x00000000
T1284 000:224.139 - 0.018ms returns 0
T1284 000:224.146 JLINK_GetDebugInfo(0x103 = JLINKARM_DEBUG_INFO_TPIU_ADDR_INDEX)
T1284 000:224.153   Value=0x00000000
T1284 000:224.161 - 0.017ms returns 0
T1284 000:224.168 JLINK_ReadMemEx(0xE0040FF0, 0x10 Bytes, Flags = 0x02000004)
T1284 000:224.179   CPU_ReadMem(16 bytes @ 0xE0040FF0)
T1284 000:224.556   failed
T1284 000:224.570 - 0.404ms returns -1 (0xFFFFFFFF)
T1284 000:224.579 JLINK_GetDebugInfo(0x104 = JLINKARM_DEBUG_INFO_ITM_ADDR_INDEX)
T1284 000:224.586   Value=0xE0000000
T1284 000:224.594 - 0.018ms returns 0
T1284 000:224.601 JLINK_GetDebugInfo(0x105 = JLINKARM_DEBUG_INFO_DWT_ADDR_INDEX)
T1284 000:224.608   Value=0xE0001000
T1284 000:224.616 - 0.017ms returns 0
T1284 000:224.623 JLINK_GetDebugInfo(0x106 = JLINKARM_DEBUG_INFO_FPB_ADDR_INDEX)
T1284 000:224.629   Value=0xE0002000
T1284 000:224.637 - 0.017ms returns 0
T1284 000:224.644 JLINK_GetDebugInfo(0x107 = JLINKARM_DEBUG_INFO_NVIC_ADDR_INDEX)
T1284 000:224.650   Value=0xE000E000
T1284 000:224.658 - 0.017ms returns 0
T1284 000:224.665 JLINK_GetDebugInfo(0x10C = JLINKARM_DEBUG_INFO_DBG_ADDR_INDEX)
T1284 000:224.671   Value=0xE000EDF0
T1284 000:224.681 - 0.018ms returns 0
T1284 000:224.688 JLINK_GetDebugInfo(0x01 = Unknown)
T1284 000:224.694   Value=0x00000000
T1284 000:224.702 - 0.017ms returns 0
T1284 000:224.709 JLINK_ReadMemU32(0xE000ED00, 0x1 Items)
T1284 000:224.720   CPU_ReadMem(4 bytes @ 0xE000ED00)
T1284 000:224.993   Data:  00 D2 1C 41
T1284 000:225.007   Debug reg: CPUID
T1284 000:225.016 - 0.310ms returns 1 (0x1)
T1284 000:225.025 JLINK_GetDebugInfo(0x10F = JLINKARM_DEBUG_INFO_HAS_CORTEX_M_SECURITY_EXT_INDEX)
T1284 000:225.036   Value=0x00000000
T1284 000:225.045 - 0.022ms returns 0
T1284 000:225.052 JLINK_HasError()
T1284 000:225.060 JLINK_SetResetType(JLINKARM_CM3_RESET_TYPE_NORMAL)
T1284 000:225.066 - 0.010ms returns JLINKARM_CM3_RESET_TYPE_NORMAL
T1284 000:225.076 JLINK_Reset()
T1284 000:225.095   CPU is running
T1284 000:225.104   CPU_WriteMem(4 bytes @ 0xE000EDF0)
T1284 000:225.394   CPU_ReadMem(4 bytes @ 0xE000ED44)
T1284 000:225.732   CPU is running
T1284 000:225.747   CPU_WriteMem(4 bytes @ 0xE000EDFC)
T1284 000:227.771   Reset: Halt core after reset via DEMCR.VC_CORERESET.
T1284 000:229.751   Reset: Reset device via AIRCR.SYSRESETREQ.
T1284 000:229.762   CPU is running
T1284 000:229.770   CPU_WriteMem(4 bytes @ 0xE000ED0C)
T1284 000:282.807   CPU_ReadMem(4 bytes @ 0xE000EDF0)
T1284 000:283.178   CPU_ReadMem(4 bytes @ 0xE000EDF0)
T1284 000:283.520   CPU is running
T1284 000:283.533   CPU_WriteMem(4 bytes @ 0xE000EDF0)
T1284 000:283.941   CPU is running
T1284 000:283.953   CPU_WriteMem(4 bytes @ 0xE000EDFC)
T1284 000:289.934   CPU_ReadMem(4 bytes @ 0xE000EDF0)
T1284 000:293.317   CPU_ReadMem(4 bytes @ 0xE000EE08)
T1284 000:293.615   CPU_WriteMem(4 bytes @ 0xE0002000)
T1284 000:293.928   CPU_ReadMem(4 bytes @ 0xE000EDFC)
T1284 000:294.222   CPU_ReadMem(4 bytes @ 0xE0001000)
T1284 000:294.515   CPU_WriteMem(4 bytes @ 0xE0001000)
T1284 000:294.808   CPU_ReadMem(4 bytes @ 0xE000EE08)
T1284 000:295.098 - 70.030ms
T1284 000:295.120 JLINK_Halt()
T1284 000:295.126 - 0.009ms returns 0x00
T1284 000:295.135 JLINK_ReadMemU32(0xE000EDF0, 0x1 Items)
T1284 000:295.149   CPU_ReadMem(4 bytes @ 0xE000EDF0)
T1284 000:295.431   Data:  03 00 03 00
T1284 000:295.441   Debug reg: DHCSR
T1284 000:295.447 - 0.313ms returns 1 (0x1)
T1284 000:295.845 JLINK_WriteU32_64(0xE000EDF0, 0xA05F0003)
T1284 000:295.853   Debug reg: DHCSR
T1284 000:296.000   CPU_WriteMem(4 bytes @ 0xE000EDF0)
T1284 000:296.277 - 0.437ms returns 0 (0x00000000)
T1284 000:296.287 JLINK_WriteU32_64(0xE000EDFC, 0x01000000)
T1284 000:296.292   Debug reg: DEMCR
T1284 000:296.303   CPU_WriteMem(4 bytes @ 0xE000EDFC)
T1284 000:296.584 - 0.302ms returns 0 (0x00000000)
T1284 000:303.740 JLINK_GetHWStatus(...)
T1284 000:303.904 - 0.172ms returns 0
T1284 000:309.103 JLINK_GetNumBPUnits(Type = 0xFFFFFF00)
T1284 000:309.113 - 0.011ms returns 0x04
T1284 000:309.119 JLINK_GetNumBPUnits(Type = 0xF0)
T1284 000:309.124 - 0.006ms returns 0x2000
T1284 000:309.129 JLINK_GetNumWPUnits()
T1284 000:309.133 - 0.006ms returns 2
T1284 000:314.103 JLINK_GetSpeed()
T1284 000:314.111 - 0.011ms returns 2000
T1284 000:317.426 JLINK_ReadMemU32(0xE000E004, 0x1 Items)
T1284 000:317.440   CPU_ReadMem(4 bytes @ 0xE000E004)
T1284 000:317.746   Data:  01 00 00 00
T1284 000:317.766 - 0.343ms returns 1 (0x1)
T1284 000:317.776 JLINK_ReadMemU32(0xE000E004, 0x1 Items)
T1284 000:317.787   CPU_ReadMem(4 bytes @ 0xE000E004)
T1284 000:318.056   Data:  01 00 00 00
T1284 000:318.070 - 0.297ms returns 1 (0x1)
T1284 000:318.082 JLINK_Halt()
T1284 000:318.088 - 0.009ms returns 0x00
T1284 000:318.095 JLINK_IsHalted()
T1284 000:318.101 - 0.009ms returns TRUE
T1284 000:319.944 JLINK_WriteMem(0x20000000, 0x204 Bytes, ...)
T1284 000:319.952   Data:  00 BE 0A E0 0D 78 2D 06 68 40 08 24 40 00 00 D3 ...
T1284 000:320.103   CPU_WriteMem(516 bytes @ 0x20000000)
T1284 000:324.027 - 4.091ms returns 0x204
T1284 000:324.376 JLINK_HasError()
T1284 000:324.390 JLINK_WriteReg(R0, 0x08000000)
T1284 000:324.402   CPU_ReadMem(4 bytes @ 0xE000EE08)
T1284 000:324.691 - 0.309ms returns 0
T1284 000:324.706 JLINK_WriteReg(R1, 0x00B71B00)
T1284 000:324.716 - 0.013ms returns 0
T1284 000:324.724 JLINK_WriteReg(R2, 0x00000001)
T1284 000:324.731 - 0.010ms returns 0
T1284 000:324.738 JLINK_WriteReg(R3, 0x00000000)
T1284 000:324.745 - 0.009ms returns 0
T1284 000:324.752 JLINK_WriteReg(R4, 0x00000000)
T1284 000:324.759 - 0.009ms returns 0
T1284 000:324.766 JLINK_WriteReg(R5, 0x00000000)
T1284 000:324.773 - 0.013ms returns 0
T1284 000:324.785 JLINK_WriteReg(R6, 0x00000000)
T1284 000:324.792 - 0.009ms returns 0
T1284 000:324.799 JLINK_WriteReg(R7, 0x00000000)
T1284 000:324.805 - 0.009ms returns 0
T1284 000:324.812 JLINK_WriteReg(R8, 0x00000000)
T1284 000:324.823 - 0.014ms returns 0
T1284 000:324.830 JLINK_WriteReg(R9, 0x20000200)
T1284 000:324.837 - 0.009ms returns 0
T1284 000:324.844 JLINK_WriteReg(R10, 0x00000000)
T1284 000:324.850 - 0.009ms returns 0
T1284 000:324.857 JLINK_WriteReg(R11, 0x00000000)
T1284 000:324.864 - 0.009ms returns 0
T1284 000:324.871 JLINK_WriteReg(R12, 0x00000000)
T1284 000:324.877 - 0.009ms returns 0
T1284 000:324.884 JLINK_WriteReg(R13 (SP), 0x20001000)
T1284 000:324.892 - 0.010ms returns 0
T1284 000:324.899 JLINK_WriteReg(R14, 0x20000001)
T1284 000:324.906 - 0.010ms returns 0
T1284 000:324.913 JLINK_WriteReg(R15 (PC), 0x20000038)
T1284 000:324.920 - 0.009ms returns 0
T1284 000:324.927 JLINK_WriteReg(XPSR, 0x01000000)
T1284 000:324.934 - 0.009ms returns 0
T1284 000:324.941 JLINK_WriteReg(MSP, 0x20001000)
T1284 000:324.947 - 0.009ms returns 0
T1284 000:324.955 JLINK_WriteReg(PSP, 0x20001000)
T1284 000:324.961 - 0.009ms returns 0
T1284 000:324.968 JLINK_WriteReg(CFBP, 0x00000000)
T1284 000:324.975 - 0.009ms returns 0
T1284 000:324.982 JLINK_SetBPEx(Addr = 0x20000000, Type = 0xFFFFFFF2)
T1284 000:324.990 - 0.010ms returns 0x00000001
T1284 000:324.997 JLINK_Go()
T1284 000:325.008   CPU_WriteMem(4 bytes @ 0xE0002000)
T1284 000:325.310   CPU_ReadMem(4 bytes @ 0xE0001000)
T1284 000:325.594   CPU_WriteMem(4 bytes @ 0xE0001000)
T1284 000:325.611   CPU_WriteMem(4 bytes @ 0xE0002008)
T1284 000:325.621   CPU_WriteMem(4 bytes @ 0xE000200C)
T1284 000:325.632   CPU_WriteMem(4 bytes @ 0xE0002010)
T1284 000:325.642   CPU_WriteMem(4 bytes @ 0xE0002014)
T1284 000:326.738   CPU_WriteMem(4 bytes @ 0xE0001004)
T1284 000:329.902 - 4.914ms
T1284 000:329.917 JLINK_IsHalted()
T1284 000:332.966 - 3.057ms returns TRUE
T1284 000:332.982 JLINK_ReadReg(R15 (PC))
T1284 000:332.994   CPU_ReadMem(4 bytes @ 0xE000EE08)
T1284 000:333.270 - 0.296ms returns 0x20000000
T1284 000:333.285 JLINK_ClrBPEx(BPHandle = 0x00000001)
T1284 000:333.294 - 0.012ms returns 0x00
T1284 000:333.301 JLINK_ReadReg(R0)
T1284 000:333.309 - 0.010ms returns 0x00000000
T1284 000:333.571 JLINK_HasError()
T1284 000:333.583 JLINK_WriteReg(R0, 0x08000000)
T1284 000:333.593 - 0.012ms returns 0
T1284 000:333.600 JLINK_WriteReg(R1, 0x00B71B00)
T1284 000:333.607 - 0.010ms returns 0
T1284 000:333.614 JLINK_WriteReg(R2, 0x00000001)
T1284 000:333.621 - 0.009ms returns 0
T1284 000:333.628 JLINK_WriteReg(R3, 0x00000000)
T1284 000:333.634 - 0.009ms returns 0
T1284 000:333.642 JLINK_WriteReg(R4, 0x00000000)
T1284 000:333.648 - 0.009ms returns 0
T1284 000:333.655 JLINK_WriteReg(R5, 0x00000000)
T1284 000:333.662 - 0.009ms returns 0
T1284 000:333.669 JLINK_WriteReg(R6, 0x00000000)
T1284 000:333.675 - 0.009ms returns 0
T1284 000:333.682 JLINK_WriteReg(R7, 0x00000000)
T1284 000:333.689 - 0.009ms returns 0
T1284 000:333.696 JLINK_WriteReg(R8, 0x00000000)
T1284 000:333.702 - 0.009ms returns 0
T1284 000:333.709 JLINK_WriteReg(R9, 0x20000200)
T1284 000:333.716 - 0.009ms returns 0
T1284 000:333.723 JLINK_WriteReg(R10, 0x00000000)
T1284 000:333.730 - 0.009ms returns 0
T1284 000:333.737 JLINK_WriteReg(R11, 0x00000000)
T1284 000:333.743 - 0.009ms returns 0
T1284 000:333.750 JLINK_WriteReg(R12, 0x00000000)
T1284 000:333.757 - 0.009ms returns 0
T1284 000:333.764 JLINK_WriteReg(R13 (SP), 0x20001000)
T1284 000:333.771 - 0.010ms returns 0
T1284 000:333.778 JLINK_WriteReg(R14, 0x20000001)
T1284 000:333.784 - 0.009ms returns 0
T1284 000:333.791 JLINK_WriteReg(R15 (PC), 0x200000C0)
T1284 000:333.798 - 0.009ms returns 0
T1284 000:333.805 JLINK_WriteReg(XPSR, 0x01000000)
T1284 000:333.812 - 0.009ms returns 0
T1284 000:333.819 JLINK_WriteReg(MSP, 0x20001000)
T1284 000:333.825 - 0.009ms returns 0
T1284 000:333.832 JLINK_WriteReg(PSP, 0x20001000)
T1284 000:333.839 - 0.009ms returns 0
T1284 000:333.846 JLINK_WriteReg(CFBP, 0x00000000)
T1284 000:333.911 - 0.068ms returns 0
T1284 000:333.919 JLINK_SetBPEx(Addr = 0x20000000, Type = 0xFFFFFFF2)
T1284 000:333.926 - 0.010ms returns 0x00000002
T1284 000:333.933 JLINK_Go()
T1284 000:333.942   CPU_WriteMem(4 bytes @ 0xE0002000)
T1284 000:334.280   CPU_ReadMem(4 bytes @ 0xE0001000)
T1284 000:334.574   CPU_WriteMem(4 bytes @ 0xE0001000)
T1284 000:337.706 - 3.781ms
T1284 000:337.721 JLINK_IsHalted()
T1284 000:338.012 - 0.299ms returns FALSE
T1284 000:338.026 JLINK_HasError()
T1284 000:346.033 JLINK_IsHalted()
T1284 000:346.352 - 0.326ms returns FALSE
T1284 000:346.367 JLINK_HasError()
T1284 000:348.037 JLINK_IsHalted()
T1284 000:351.084 - 3.056ms returns TRUE
T1284 000:351.102 JLINK_ReadReg(R15 (PC))
T1284 000:351.113   CPU_ReadMem(4 bytes @ 0xE000EE08)
T1284 000:351.402 - 0.308ms returns 0x20000000
T1284 000:351.421 JLINK_ClrBPEx(BPHandle = 0x00000002)
T1284 000:351.429 - 0.012ms returns 0x00
T1284 000:351.438 JLINK_ReadReg(R0)
T1284 000:351.446 - 0.010ms returns 0x00000000
T1284 000:403.009 JLINK_HasError()
T1284 000:403.040 JLINK_WriteReg(R0, 0x00000001)
T1284 000:403.057 - 0.019ms returns 0
T1284 000:403.065 JLINK_WriteReg(R1, 0x00B71B00)
T1284 000:403.073 - 0.011ms returns 0
T1284 000:403.080 JLINK_WriteReg(R2, 0x00000001)
T1284 000:403.087 - 0.010ms returns 0
T1284 000:403.095 JLINK_WriteReg(R3, 0x00000000)
T1284 000:403.102 - 0.009ms returns 0
T1284 000:403.109 JLINK_WriteReg(R4, 0x00000000)
T1284 000:403.115 - 0.009ms returns 0
T1284 000:403.123 JLINK_WriteReg(R5, 0x00000000)
T1284 000:403.129 - 0.009ms returns 0
T1284 000:403.136 JLINK_WriteReg(R6, 0x00000000)
T1284 000:403.143 - 0.009ms returns 0
T1284 000:403.150 JLINK_WriteReg(R7, 0x00000000)
T1284 000:403.155 - 0.007ms returns 0
T1284 000:403.160 JLINK_WriteReg(R8, 0x00000000)
T1284 000:403.164 - 0.006ms returns 0
T1284 000:403.169 JLINK_WriteReg(R9, 0x20000200)
T1284 000:403.174 - 0.006ms returns 0
T1284 000:403.179 JLINK_WriteReg(R10, 0x00000000)
T1284 000:403.183 - 0.006ms returns 0
T1284 000:403.188 JLINK_WriteReg(R11, 0x00000000)
T1284 000:403.193 - 0.006ms returns 0
T1284 000:403.198 JLINK_WriteReg(R12, 0x00000000)
T1284 000:403.202 - 0.006ms returns 0
T1284 000:403.207 JLINK_WriteReg(R13 (SP), 0x20001000)
T1284 000:403.213 - 0.007ms returns 0
T1284 000:403.218 JLINK_WriteReg(R14, 0x20000001)
T1284 000:403.222 - 0.006ms returns 0
T1284 000:403.227 JLINK_WriteReg(R15 (PC), 0x200000A4)
T1284 000:403.232 - 0.007ms returns 0
T1284 000:403.237 JLINK_WriteReg(XPSR, 0x01000000)
T1284 000:403.242 - 0.006ms returns 0
T1284 000:403.247 JLINK_WriteReg(MSP, 0x20001000)
T1284 000:403.251 - 0.006ms returns 0
T1284 000:403.256 JLINK_WriteReg(PSP, 0x20001000)
T1284 000:403.261 - 0.006ms returns 0
T1284 000:403.265 JLINK_WriteReg(CFBP, 0x00000000)
T1284 000:403.270 - 0.006ms returns 0
T1284 000:403.275 JLINK_SetBPEx(Addr = 0x20000000, Type = 0xFFFFFFF2)
T1284 000:403.281 - 0.008ms returns 0x00000003
T1284 000:403.286 JLINK_Go()
T1284 000:403.294   CPU_WriteMem(4 bytes @ 0xE0002000)
T1284 000:403.657   CPU_ReadMem(4 bytes @ 0xE0001000)
T1284 000:405.159   CPU_WriteMem(4 bytes @ 0xE0001000)
T1284 000:408.689 - 5.431ms
T1284 000:408.727 JLINK_IsHalted()
T1284 000:412.313 - 3.595ms returns TRUE
T1284 000:412.330 JLINK_ReadReg(R15 (PC))
T1284 000:412.343   CPU_ReadMem(4 bytes @ 0xE000EE08)
T1284 000:412.680 - 0.358ms returns 0x20000000
T1284 000:412.695 JLINK_ClrBPEx(BPHandle = 0x00000003)
T1284 000:412.705 - 0.012ms returns 0x00
T1284 000:412.713 JLINK_ReadReg(R0)
T1284 000:412.721 - 0.011ms returns 0x00000000
T1284 000:416.851 JLINK_WriteMem(0x20000000, 0x204 Bytes, ...)
T1284 000:416.859   Data:  00 BE 0A E0 0D 78 2D 06 68 40 08 24 40 00 00 D3 ...
T1284 000:416.871   CPU_WriteMem(516 bytes @ 0x20000000)
T1284 000:420.818 - 3.977ms returns 0x204
T1284 000:420.858 JLINK_HasError()
T1284 000:420.868 JLINK_WriteReg(R0, 0x08000000)
T1284 000:420.878 - 0.013ms returns 0
T1284 000:420.886 JLINK_WriteReg(R1, 0x00B71B00)
T1284 000:420.893 - 0.010ms returns 0
T1284 000:420.905 JLINK_WriteReg(R2, 0x00000002)
T1284 000:420.915 - 0.013ms returns 0
T1284 000:420.922 JLINK_WriteReg(R3, 0x00000000)
T1284 000:420.928 - 0.009ms returns 0
T1284 000:420.935 JLINK_WriteReg(R4, 0x00000000)
T1284 000:420.942 - 0.009ms returns 0
T1284 000:420.949 JLINK_WriteReg(R5, 0x00000000)
T1284 000:420.956 - 0.009ms returns 0
T1284 000:420.963 JLINK_WriteReg(R6, 0x00000000)
T1284 000:420.970 - 0.009ms returns 0
T1284 000:420.977 JLINK_WriteReg(R7, 0x00000000)
T1284 000:420.983 - 0.009ms returns 0
T1284 000:420.990 JLINK_WriteReg(R8, 0x00000000)
T1284 000:420.997 - 0.009ms returns 0
T1284 000:421.004 JLINK_WriteReg(R9, 0x20000200)
T1284 000:421.010 - 0.009ms returns 0
T1284 000:421.017 JLINK_WriteReg(R10, 0x00000000)
T1284 000:421.024 - 0.009ms returns 0
T1284 000:421.031 JLINK_WriteReg(R11, 0x00000000)
T1284 000:421.037 - 0.009ms returns 0
T1284 000:421.044 JLINK_WriteReg(R12, 0x00000000)
T1284 000:421.051 - 0.009ms returns 0
T1284 000:421.058 JLINK_WriteReg(R13 (SP), 0x20001000)
T1284 000:421.065 - 0.010ms returns 0
T1284 000:421.072 JLINK_WriteReg(R14, 0x20000001)
T1284 000:421.079 - 0.009ms returns 0
T1284 000:421.086 JLINK_WriteReg(R15 (PC), 0x20000038)
T1284 000:421.093 - 0.009ms returns 0
T1284 000:421.100 JLINK_WriteReg(XPSR, 0x01000000)
T1284 000:421.107 - 0.010ms returns 0
T1284 000:421.114 JLINK_WriteReg(MSP, 0x20001000)
T1284 000:421.121 - 0.009ms returns 0
T1284 000:421.128 JLINK_WriteReg(PSP, 0x20001000)
T1284 000:421.134 - 0.009ms returns 0
T1284 000:421.141 JLINK_WriteReg(CFBP, 0x00000000)
T1284 000:421.148 - 0.009ms returns 0
T1284 000:421.155 JLINK_SetBPEx(Addr = 0x20000000, Type = 0xFFFFFFF2)
T1284 000:421.162 - 0.010ms returns 0x00000004
T1284 000:421.170 JLINK_Go()
T1284 000:421.179   CPU_WriteMem(4 bytes @ 0xE0002000)
T1284 000:421.476   CPU_ReadMem(4 bytes @ 0xE0001000)
T1284 000:421.771   CPU_WriteMem(4 bytes @ 0xE0001000)
T1284 000:425.079 - 3.919ms
T1284 000:425.096 JLINK_IsHalted()
T1284 000:428.125 - 3.037ms returns TRUE
T1284 000:428.140 JLINK_ReadReg(R15 (PC))
T1284 000:428.150   CPU_ReadMem(4 bytes @ 0xE000EE08)
T1284 000:428.434 - 0.302ms returns 0x20000000
T1284 000:428.452 JLINK_ClrBPEx(BPHandle = 0x00000004)
T1284 000:428.461 - 0.012ms returns 0x00
T1284 000:428.469 JLINK_ReadReg(R0)
T1284 000:428.477 - 0.010ms returns 0x00000000
T1284 000:428.909 JLINK_WriteMem(0x20000204, 0x1FC Bytes, ...)
T1284 000:428.922   Data:  68 13 00 20 55 01 00 08 77 01 00 08 79 01 00 08 ...
T1284 000:428.939   CPU_WriteMem(508 bytes @ 0x20000204)
T1284 000:432.816 - 3.915ms returns 0x1FC
T1284 000:432.831 JLINK_WriteMem(0x20000400, 0x204 Bytes, ...)
T1284 000:432.837   Data:  00 F0 24 F8 AE 46 05 00 69 46 53 46 C0 08 C0 00 ...
T1284 000:432.852   CPU_WriteMem(516 bytes @ 0x20000400)
T1284 000:436.764 - 3.941ms returns 0x204
T1284 000:436.779 JLINK_HasError()
T1284 000:436.787 JLINK_WriteReg(R0, 0x08000000)
T1284 000:436.797 - 0.013ms returns 0
T1284 000:436.804 JLINK_WriteReg(R1, 0x00000400)
T1284 000:436.811 - 0.010ms returns 0
T1284 000:436.818 JLINK_WriteReg(R2, 0x20000204)
T1284 000:436.825 - 0.009ms returns 0
T1284 000:436.832 JLINK_WriteReg(R3, 0x00000000)
T1284 000:436.839 - 0.009ms returns 0
T1284 000:436.846 JLINK_WriteReg(R4, 0x00000000)
T1284 000:436.852 - 0.009ms returns 0
T1284 000:436.859 JLINK_WriteReg(R5, 0x00000000)
T1284 000:436.866 - 0.009ms returns 0
T1284 000:436.873 JLINK_WriteReg(R6, 0x00000000)
T1284 000:436.879 - 0.009ms returns 0
T1284 000:436.886 JLINK_WriteReg(R7, 0x00000000)
T1284 000:436.893 - 0.009ms returns 0
T1284 000:436.900 JLINK_WriteReg(R8, 0x00000000)
T1284 000:436.907 - 0.009ms returns 0
T1284 000:436.914 JLINK_WriteReg(R9, 0x20000200)
T1284 000:436.920 - 0.009ms returns 0
T1284 000:436.927 JLINK_WriteReg(R10, 0x00000000)
T1284 000:436.934 - 0.009ms returns 0
T1284 000:436.941 JLINK_WriteReg(R11, 0x00000000)
T1284 000:436.948 - 0.009ms returns 0
T1284 000:436.954 JLINK_WriteReg(R12, 0x00000000)
T1284 000:436.961 - 0.009ms returns 0
T1284 000:436.968 JLINK_WriteReg(R13 (SP), 0x20001000)
T1284 000:436.979 - 0.015ms returns 0
T1284 000:436.988 JLINK_WriteReg(R14, 0x20000001)
T1284 000:436.994 - 0.009ms returns 0
T1284 000:437.001 JLINK_WriteReg(R15 (PC), 0x20000164)
T1284 000:437.008 - 0.009ms returns 0
T1284 000:437.015 JLINK_WriteReg(XPSR, 0x01000000)
T1284 000:437.022 - 0.009ms returns 0
T1284 000:437.029 JLINK_WriteReg(MSP, 0x20001000)
T1284 000:437.036 - 0.009ms returns 0
T1284 000:437.043 JLINK_WriteReg(PSP, 0x20001000)
T1284 000:437.049 - 0.009ms returns 0
T1284 000:437.056 JLINK_WriteReg(CFBP, 0x00000000)
T1284 000:437.063 - 0.009ms returns 0
T1284 000:437.070 JLINK_SetBPEx(Addr = 0x20000000, Type = 0xFFFFFFF2)
T1284 000:437.077 - 0.009ms returns 0x00000005
T1284 000:437.084 JLINK_Go()
T1284 000:437.092   CPU_WriteMem(4 bytes @ 0xE0002000)
T1284 000:437.401   CPU_ReadMem(4 bytes @ 0xE0001000)
T1284 000:437.689   CPU_WriteMem(4 bytes @ 0xE0001000)
T1284 000:440.901 - 3.825ms
T1284 000:440.916 JLINK_IsHalted()
T1284 000:441.203 - 0.295ms returns FALSE
T1284 000:441.218 JLINK_HasError()
T1284 000:444.769 JLINK_IsHalted()
T1284 000:445.110 - 0.349ms returns FALSE
T1284 000:445.127 JLINK_HasError()
T1284 000:446.794 JLINK_IsHalted()
T1284 000:447.103 - 0.317ms returns FALSE
T1284 000:447.118 JLINK_HasError()
T1284 000:448.791 JLINK_IsHalted()
T1284 000:449.111 - 0.329ms returns FALSE
T1284 000:449.127 JLINK_HasError()
T1284 000:450.786 JLINK_IsHalted()
T1284 000:451.104 - 0.327ms returns FALSE
T1284 000:451.121 JLINK_HasError()
T1284 000:452.802 JLINK_IsHalted()
T1284 000:453.102 - 0.308ms returns FALSE
T1284 000:453.117 JLINK_HasError()
T1284 000:454.797 JLINK_IsHalted()
T1284 000:457.815 - 3.026ms returns TRUE
T1284 000:457.830 JLINK_ReadReg(R15 (PC))
T1284 000:457.839   CPU_ReadMem(4 bytes @ 0xE000EE08)
T1284 000:458.130 - 0.308ms returns 0x20000000
T1284 000:458.144 JLINK_ClrBPEx(BPHandle = 0x00000005)
T1284 000:458.153 - 0.011ms returns 0x00
T1284 000:458.161 JLINK_ReadReg(R0)
T1284 000:458.169 - 0.011ms returns 0x00000000
T1284 000:458.643 JLINK_WriteMem(0x20000204, 0x1FC Bytes, ...)
T1284 000:458.654   Data:  40 F2 00 20 04 F0 78 FA 40 F2 00 40 04 F0 74 FA ...
T1284 000:458.669   CPU_WriteMem(508 bytes @ 0x20000204)
T1284 000:462.577 - 3.942ms returns 0x1FC
T1284 000:462.592 JLINK_WriteMem(0x20000400, 0x204 Bytes, ...)
T1284 000:462.599   Data:  03 F0 FC FC 80 BD C0 46 80 B5 92 B0 09 20 C0 06 ...
T1284 000:462.613   CPU_WriteMem(516 bytes @ 0x20000400)
T1284 000:466.546 - 3.962ms returns 0x204
T1284 000:466.561 JLINK_HasError()
T1284 000:466.569 JLINK_WriteReg(R0, 0x08000400)
T1284 000:466.580 - 0.013ms returns 0
T1284 000:466.587 JLINK_WriteReg(R1, 0x00000400)
T1284 000:466.602 - 0.018ms returns 0
T1284 000:466.610 JLINK_WriteReg(R2, 0x20000204)
T1284 000:466.619 - 0.012ms returns 0
T1284 000:466.627 JLINK_WriteReg(R3, 0x00000000)
T1284 000:466.636 - 0.012ms returns 0
T1284 000:466.645 JLINK_WriteReg(R4, 0x00000000)
T1284 000:466.652 - 0.011ms returns 0
T1284 000:466.661 JLINK_WriteReg(R5, 0x00000000)
T1284 000:466.668 - 0.011ms returns 0
T1284 000:466.677 JLINK_WriteReg(R6, 0x00000000)
T1284 000:466.684 - 0.011ms returns 0
T1284 000:466.693 JLINK_WriteReg(R7, 0x00000000)
T1284 000:466.700 - 0.011ms returns 0
T1284 000:466.709 JLINK_WriteReg(R8, 0x00000000)
T1284 000:466.716 - 0.011ms returns 0
T1284 000:466.725 JLINK_WriteReg(R9, 0x20000200)
T1284 000:466.732 - 0.011ms returns 0
T1284 000:466.740 JLINK_WriteReg(R10, 0x00000000)
T1284 000:466.748 - 0.011ms returns 0
T1284 000:466.756 JLINK_WriteReg(R11, 0x00000000)
T1284 000:466.764 - 0.011ms returns 0
T1284 000:466.772 JLINK_WriteReg(R12, 0x00000000)
T1284 000:466.780 - 0.011ms returns 0
T1284 000:466.788 JLINK_WriteReg(R13 (SP), 0x20001000)
T1284 000:466.797 - 0.012ms returns 0
T1284 000:466.805 JLINK_WriteReg(R14, 0x20000001)
T1284 000:466.813 - 0.011ms returns 0
T1284 000:466.821 JLINK_WriteReg(R15 (PC), 0x20000164)
T1284 000:466.829 - 0.011ms returns 0
T1284 000:466.837 JLINK_WriteReg(XPSR, 0x01000000)
T1284 000:466.845 - 0.014ms returns 0
T1284 000:466.858 JLINK_WriteReg(MSP, 0x20001000)
T1284 000:466.866 - 0.011ms returns 0
T1284 000:466.874 JLINK_WriteReg(PSP, 0x20001000)
T1284 000:466.882 - 0.011ms returns 0
T1284 000:466.890 JLINK_WriteReg(CFBP, 0x00000000)
T1284 000:466.898 - 0.011ms returns 0
T1284 000:466.906 JLINK_SetBPEx(Addr = 0x20000000, Type = 0xFFFFFFF2)
T1284 000:466.914 - 0.011ms returns 0x00000006
T1284 000:466.923 JLINK_Go()
T1284 000:466.932   CPU_WriteMem(4 bytes @ 0xE0002000)
T1284 000:467.242   CPU_ReadMem(4 bytes @ 0xE0001000)
T1284 000:467.534   CPU_WriteMem(4 bytes @ 0xE0001000)
T1284 000:470.727 - 3.813ms
T1284 000:470.742 JLINK_IsHalted()
T1284 000:471.035 - 0.301ms returns FALSE
T1284 000:471.051 JLINK_HasError()
T1284 000:472.549 JLINK_IsHalted()
T1284 000:472.901 - 0.360ms returns FALSE
T1284 000:472.916 JLINK_HasError()
T1284 000:474.555 JLINK_IsHalted()
T1284 000:474.901 - 0.354ms returns FALSE
T1284 000:474.916 JLINK_HasError()
T1284 000:476.576 JLINK_IsHalted()
T1284 000:476.907 - 0.339ms returns FALSE
T1284 000:476.922 JLINK_HasError()
T1284 000:479.569 JLINK_IsHalted()
T1284 000:479.893 - 0.331ms returns FALSE
T1284 000:479.909 JLINK_HasError()
T1284 000:481.572 JLINK_IsHalted()
T1284 000:481.900 - 0.336ms returns FALSE
T1284 000:481.914 JLINK_HasError()
T1284 000:483.601 JLINK_IsHalted()
T1284 000:483.906 - 0.312ms returns FALSE
T1284 000:483.920 JLINK_HasError()
T1284 000:485.684 JLINK_IsHalted()
T1284 000:488.710 - 3.034ms returns TRUE
T1284 000:488.725 JLINK_ReadReg(R15 (PC))
T1284 000:488.734   CPU_ReadMem(4 bytes @ 0xE000EE08)
T1284 000:489.020 - 0.304ms returns 0x20000000
T1284 000:489.035 JLINK_ClrBPEx(BPHandle = 0x00000006)
T1284 000:489.044 - 0.011ms returns 0x00
T1284 000:489.051 JLINK_ReadReg(R0)
T1284 000:489.059 - 0.010ms returns 0x00000000
T1284 000:489.521 JLINK_WriteMem(0x20000204, 0x1FC Bytes, ...)
T1284 000:489.532   Data:  8B FB 06 9A 0E 99 10 98 03 F0 86 FB 05 9B 0D 9A ...
T1284 000:489.547   CPU_WriteMem(508 bytes @ 0x20000204)
T1284 000:493.459 - 3.947ms returns 0x1FC
T1284 000:493.474 JLINK_WriteMem(0x20000400, 0x204 Bytes, ...)
T1284 000:493.481   Data:  0B 98 04 F0 45 FA 02 9A 07 99 0B 98 04 F0 F0 F9 ...
T1284 000:493.495   CPU_WriteMem(516 bytes @ 0x20000400)
T1284 000:497.451 - 3.985ms returns 0x204
T1284 000:497.466 JLINK_HasError()
T1284 000:497.474 JLINK_WriteReg(R0, 0x08000800)
T1284 000:497.484 - 0.013ms returns 0
T1284 000:497.491 JLINK_WriteReg(R1, 0x00000400)
T1284 000:497.498 - 0.010ms returns 0
T1284 000:497.505 JLINK_WriteReg(R2, 0x20000204)
T1284 000:497.512 - 0.009ms returns 0
T1284 000:497.519 JLINK_WriteReg(R3, 0x00000000)
T1284 000:497.526 - 0.009ms returns 0
T1284 000:497.533 JLINK_WriteReg(R4, 0x00000000)
T1284 000:497.540 - 0.009ms returns 0
T1284 000:497.547 JLINK_WriteReg(R5, 0x00000000)
T1284 000:497.553 - 0.009ms returns 0
T1284 000:497.560 JLINK_WriteReg(R6, 0x00000000)
T1284 000:497.567 - 0.009ms returns 0
T1284 000:497.574 JLINK_WriteReg(R7, 0x00000000)
T1284 000:497.580 - 0.009ms returns 0
T1284 000:497.587 JLINK_WriteReg(R8, 0x00000000)
T1284 000:497.594 - 0.009ms returns 0
T1284 000:497.601 JLINK_WriteReg(R9, 0x20000200)
T1284 000:497.607 - 0.009ms returns 0
T1284 000:497.614 JLINK_WriteReg(R10, 0x00000000)
T1284 000:497.621 - 0.009ms returns 0
T1284 000:497.628 JLINK_WriteReg(R11, 0x00000000)
T1284 000:497.634 - 0.009ms returns 0
T1284 000:497.641 JLINK_WriteReg(R12, 0x00000000)
T1284 000:497.648 - 0.009ms returns 0
T1284 000:497.655 JLINK_WriteReg(R13 (SP), 0x20001000)
T1284 000:497.662 - 0.010ms returns 0
T1284 000:497.669 JLINK_WriteReg(R14, 0x20000001)
T1284 000:497.676 - 0.009ms returns 0
T1284 000:497.683 JLINK_WriteReg(R15 (PC), 0x20000164)
T1284 000:497.689 - 0.009ms returns 0
T1284 000:497.696 JLINK_WriteReg(XPSR, 0x01000000)
T1284 000:497.703 - 0.009ms returns 0
T1284 000:497.710 JLINK_WriteReg(MSP, 0x20001000)
T1284 000:497.716 - 0.009ms returns 0
T1284 000:497.723 JLINK_WriteReg(PSP, 0x20001000)
T1284 000:497.730 - 0.009ms returns 0
T1284 000:497.737 JLINK_WriteReg(CFBP, 0x00000000)
T1284 000:497.805 - 0.071ms returns 0
T1284 000:497.813 JLINK_SetBPEx(Addr = 0x20000000, Type = 0xFFFFFFF2)
T1284 000:497.820 - 0.010ms returns 0x00000007
T1284 000:497.827 JLINK_Go()
T1284 000:497.835   CPU_WriteMem(4 bytes @ 0xE0002000)
T1284 000:498.129   CPU_ReadMem(4 bytes @ 0xE0001000)
T1284 000:498.409   CPU_WriteMem(4 bytes @ 0xE0001000)
T1284 000:501.587 - 3.766ms
T1284 000:501.597 JLINK_IsHalted()
T1284 000:501.897 - 0.305ms returns FALSE
T1284 000:501.907 JLINK_HasError()
T1284 000:502.983 JLINK_IsHalted()
T1284 000:503.281 - 0.306ms returns FALSE
T1284 000:503.296 JLINK_HasError()
T1284 000:505.262 JLINK_IsHalted()
T1284 000:505.540 - 0.286ms returns FALSE
T1284 000:505.555 JLINK_HasError()
T1284 000:506.996 JLINK_IsHalted()
T1284 000:507.280 - 0.290ms returns FALSE
T1284 000:507.290 JLINK_HasError()
T1284 000:509.010 JLINK_IsHalted()
T1284 000:509.308 - 0.305ms returns FALSE
T1284 000:509.322 JLINK_HasError()
T1284 000:511.005 JLINK_IsHalted()
T1284 000:511.296 - 0.299ms returns FALSE
T1284 000:511.311 JLINK_HasError()
T1284 000:513.009 JLINK_IsHalted()
T1284 000:513.295 - 0.294ms returns FALSE
T1284 000:513.310 JLINK_HasError()
T1284 000:515.014 JLINK_IsHalted()
T1284 000:515.306 - 0.299ms returns FALSE
T1284 000:515.320 JLINK_HasError()
T1284 000:517.020 JLINK_IsHalted()
T1284 000:520.030 - 3.019ms returns TRUE
T1284 000:520.046 JLINK_ReadReg(R15 (PC))
T1284 000:520.056   CPU_ReadMem(4 bytes @ 0xE000EE08)
T1284 000:520.343 - 0.306ms returns 0x20000000
T1284 000:520.359 JLINK_ClrBPEx(BPHandle = 0x00000007)
T1284 000:520.368 - 0.012ms returns 0x00
T1284 000:520.375 JLINK_ReadReg(R0)
T1284 000:520.383 - 0.010ms returns 0x00000000
T1284 000:520.843 JLINK_WriteMem(0x20000204, 0x1FC Bytes, ...)
T1284 000:520.854   Data:  06 98 02 21 07 91 04 F0 D9 FA 06 98 04 21 04 F0 ...
T1284 000:520.868   CPU_WriteMem(508 bytes @ 0x20000204)
T1284 000:524.731 - 3.896ms returns 0x1FC
T1284 000:524.746 JLINK_WriteMem(0x20000400, 0x204 Bytes, ...)
T1284 000:524.753   Data:  80 18 88 60 00 99 88 68 80 13 48 60 01 B0 10 BD ...
T1284 000:524.766   CPU_WriteMem(516 bytes @ 0x20000400)
T1284 000:528.726 - 3.988ms returns 0x204
T1284 000:528.741 JLINK_HasError()
T1284 000:528.749 JLINK_WriteReg(R0, 0x08000C00)
T1284 000:528.759 - 0.013ms returns 0
T1284 000:528.766 JLINK_WriteReg(R1, 0x00000400)
T1284 000:528.773 - 0.010ms returns 0
T1284 000:528.781 JLINK_WriteReg(R2, 0x20000204)
T1284 000:528.787 - 0.009ms returns 0
T1284 000:528.794 JLINK_WriteReg(R3, 0x00000000)
T1284 000:528.801 - 0.009ms returns 0
T1284 000:528.808 JLINK_WriteReg(R4, 0x00000000)
T1284 000:528.814 - 0.009ms returns 0
T1284 000:528.821 JLINK_WriteReg(R5, 0x00000000)
T1284 000:528.828 - 0.009ms returns 0
T1284 000:528.835 JLINK_WriteReg(R6, 0x00000000)
T1284 000:528.842 - 0.009ms returns 0
T1284 000:528.849 JLINK_WriteReg(R7, 0x00000000)
T1284 000:528.855 - 0.009ms returns 0
T1284 000:528.862 JLINK_WriteReg(R8, 0x00000000)
T1284 000:528.869 - 0.009ms returns 0
T1284 000:528.876 JLINK_WriteReg(R9, 0x20000200)
T1284 000:528.882 - 0.009ms returns 0
T1284 000:528.889 JLINK_WriteReg(R10, 0x00000000)
T1284 000:528.896 - 0.009ms returns 0
T1284 000:528.903 JLINK_WriteReg(R11, 0x00000000)
T1284 000:528.909 - 0.009ms returns 0
T1284 000:528.917 JLINK_WriteReg(R12, 0x00000000)
T1284 000:528.924 - 0.010ms returns 0
T1284 000:528.932 JLINK_WriteReg(R13 (SP), 0x20001000)
T1284 000:528.939 - 0.010ms returns 0
T1284 000:528.946 JLINK_WriteReg(R14, 0x20000001)
T1284 000:528.953 - 0.009ms returns 0
T1284 000:528.960 JLINK_WriteReg(R15 (PC), 0x20000164)
T1284 000:528.966 - 0.009ms returns 0
T1284 000:528.974 JLINK_WriteReg(XPSR, 0x01000000)
T1284 000:528.980 - 0.009ms returns 0
T1284 000:528.987 JLINK_WriteReg(MSP, 0x20001000)
T1284 000:528.994 - 0.009ms returns 0
T1284 000:529.001 JLINK_WriteReg(PSP, 0x20001000)
T1284 000:529.007 - 0.009ms returns 0
T1284 000:529.014 JLINK_WriteReg(CFBP, 0x00000000)
T1284 000:529.021 - 0.009ms returns 0
T1284 000:529.028 JLINK_SetBPEx(Addr = 0x20000000, Type = 0xFFFFFFF2)
T1284 000:529.039 - 0.014ms returns 0x00000008
T1284 000:529.047 JLINK_Go()
T1284 000:529.055   CPU_WriteMem(4 bytes @ 0xE0002000)
T1284 000:529.351   CPU_ReadMem(4 bytes @ 0xE0001000)
T1284 000:529.641   CPU_WriteMem(4 bytes @ 0xE0001000)
T1284 000:532.785 - 3.746ms
T1284 000:532.801 JLINK_IsHalted()
T1284 000:533.101 - 0.307ms returns FALSE
T1284 000:533.117 JLINK_HasError()
T1284 000:534.198 JLINK_IsHalted()
T1284 000:534.514 - 0.324ms returns FALSE
T1284 000:534.529 JLINK_HasError()
T1284 000:536.236 JLINK_IsHalted()
T1284 000:536.539 - 0.311ms returns FALSE
T1284 000:536.554 JLINK_HasError()
T1284 000:538.241 JLINK_IsHalted()
T1284 000:538.546 - 0.312ms returns FALSE
T1284 000:538.561 JLINK_HasError()
T1284 000:540.247 JLINK_IsHalted()
T1284 000:540.547 - 0.308ms returns FALSE
T1284 000:540.562 JLINK_HasError()
T1284 000:542.262 JLINK_IsHalted()
T1284 000:542.558 - 0.304ms returns FALSE
T1284 000:542.573 JLINK_HasError()
T1284 000:544.255 JLINK_IsHalted()
T1284 000:544.553 - 0.306ms returns FALSE
T1284 000:544.568 JLINK_HasError()
T1284 000:546.262 JLINK_IsHalted()
T1284 000:546.571 - 0.317ms returns FALSE
T1284 000:546.586 JLINK_HasError()
T1284 000:548.267 JLINK_IsHalted()
T1284 000:551.260 - 3.001ms returns TRUE
T1284 000:551.274 JLINK_ReadReg(R15 (PC))
T1284 000:551.284   CPU_ReadMem(4 bytes @ 0xE000EE08)
T1284 000:551.570 - 0.303ms returns 0x20000000
T1284 000:551.584 JLINK_ClrBPEx(BPHandle = 0x00000008)
T1284 000:551.593 - 0.011ms returns 0x00
T1284 000:551.601 JLINK_ReadReg(R0)
T1284 000:551.608 - 0.010ms returns 0x00000000
T1284 000:552.062 JLINK_WriteMem(0x20000204, 0x1FC Bytes, ...)
T1284 000:552.073   Data:  01 F0 79 FF 09 E0 01 98 C0 6A 28 B1 FF E7 01 99 ...
T1284 000:552.087   CPU_WriteMem(508 bytes @ 0x20000204)
T1284 000:555.943 - 3.891ms returns 0x1FC
T1284 000:555.960 JLINK_WriteMem(0x20000400, 0x204 Bytes, ...)
T1284 000:555.967   Data:  88 42 08 D9 FF E7 02 99 00 20 08 60 01 99 68 22 ...
T1284 000:555.983   CPU_WriteMem(516 bytes @ 0x20000400)
T1284 000:559.909 - 3.959ms returns 0x204
T1284 000:559.928 JLINK_HasError()
T1284 000:560.256 JLINK_WriteReg(R0, 0x08001000)
T1284 000:560.273 - 0.021ms returns 0
T1284 000:560.283 JLINK_WriteReg(R1, 0x00000400)
T1284 000:560.291 - 0.011ms returns 0
T1284 000:560.299 JLINK_WriteReg(R2, 0x20000204)
T1284 000:560.307 - 0.011ms returns 0
T1284 000:560.316 JLINK_WriteReg(R3, 0x00000000)
T1284 000:560.324 - 0.012ms returns 0
T1284 000:560.333 JLINK_WriteReg(R4, 0x00000000)
T1284 000:560.341 - 0.012ms returns 0
T1284 000:560.350 JLINK_WriteReg(R5, 0x00000000)
T1284 000:560.358 - 0.020ms returns 0
T1284 000:560.379 JLINK_WriteReg(R6, 0x00000000)
T1284 000:560.385 - 0.009ms returns 0
T1284 000:560.392 JLINK_WriteReg(R7, 0x00000000)
T1284 000:560.399 - 0.009ms returns 0
T1284 000:560.406 JLINK_WriteReg(R8, 0x00000000)
T1284 000:560.413 - 0.009ms returns 0
T1284 000:560.420 JLINK_WriteReg(R9, 0x20000200)
T1284 000:560.426 - 0.009ms returns 0
T1284 000:560.433 JLINK_WriteReg(R10, 0x00000000)
T1284 000:560.440 - 0.009ms returns 0
T1284 000:560.447 JLINK_WriteReg(R11, 0x00000000)
T1284 000:560.454 - 0.009ms returns 0
T1284 000:560.461 JLINK_WriteReg(R12, 0x00000000)
T1284 000:560.468 - 0.009ms returns 0
T1284 000:560.475 JLINK_WriteReg(R13 (SP), 0x20001000)
T1284 000:560.482 - 0.010ms returns 0
T1284 000:560.489 JLINK_WriteReg(R14, 0x20000001)
T1284 000:560.495 - 0.009ms returns 0
T1284 000:560.502 JLINK_WriteReg(R15 (PC), 0x20000164)
T1284 000:560.509 - 0.009ms returns 0
T1284 000:560.516 JLINK_WriteReg(XPSR, 0x01000000)
T1284 000:560.523 - 0.009ms returns 0
T1284 000:560.530 JLINK_WriteReg(MSP, 0x20001000)
T1284 000:560.536 - 0.009ms returns 0
T1284 000:560.543 JLINK_WriteReg(PSP, 0x20001000)
T1284 000:560.550 - 0.009ms returns 0
T1284 000:560.557 JLINK_WriteReg(CFBP, 0x00000000)
T1284 000:560.563 - 0.009ms returns 0
T1284 000:560.570 JLINK_SetBPEx(Addr = 0x20000000, Type = 0xFFFFFFF2)
T1284 000:560.577 - 0.009ms returns 0x00000009
T1284 000:560.587 JLINK_Go()
T1284 000:560.598   CPU_WriteMem(4 bytes @ 0xE0002000)
T1284 000:560.912   CPU_ReadMem(4 bytes @ 0xE0001000)
T1284 000:561.194   CPU_WriteMem(4 bytes @ 0xE0001000)
T1284 000:564.318 - 3.739ms
T1284 000:564.334 JLINK_IsHalted()
T1284 000:564.627 - 0.301ms returns FALSE
T1284 000:564.642 JLINK_HasError()
T1284 000:566.843 JLINK_IsHalted()
T1284 000:567.143 - 0.308ms returns FALSE
T1284 000:567.158 JLINK_HasError()
T1284 000:568.835 JLINK_IsHalted()
T1284 000:569.128 - 0.299ms returns FALSE
T1284 000:569.139 JLINK_HasError()
T1284 000:570.842 JLINK_IsHalted()
T1284 000:571.147 - 0.313ms returns FALSE
T1284 000:571.163 JLINK_HasError()
T1284 000:572.847 JLINK_IsHalted()
T1284 000:573.142 - 0.303ms returns FALSE
T1284 000:573.157 JLINK_HasError()
T1284 000:574.863 JLINK_IsHalted()
T1284 000:575.167 - 0.312ms returns FALSE
T1284 000:575.182 JLINK_HasError()
T1284 000:576.858 JLINK_IsHalted()
T1284 000:577.158 - 0.308ms returns FALSE
T1284 000:577.173 JLINK_HasError()
T1284 000:578.862 JLINK_IsHalted()
T1284 000:581.964 - 3.110ms returns TRUE
T1284 000:581.979 JLINK_ReadReg(R15 (PC))
T1284 000:581.989   CPU_ReadMem(4 bytes @ 0xE000EE08)
T1284 000:582.315 - 0.344ms returns 0x20000000
T1284 000:582.330 JLINK_ClrBPEx(BPHandle = 0x00000009)
T1284 000:582.338 - 0.011ms returns 0x00
T1284 000:582.346 JLINK_ReadReg(R0)
T1284 000:582.353 - 0.010ms returns 0x00000000
T1284 000:582.817 JLINK_WriteMem(0x20000204, 0x1FC Bytes, ...)
T1284 000:582.827   Data:  69 46 01 20 08 70 FF E7 03 99 88 68 40 1C 88 60 ...
T1284 000:582.842   CPU_WriteMem(508 bytes @ 0x20000204)
T1284 000:586.710 - 3.901ms returns 0x1FC
T1284 000:586.727 JLINK_WriteMem(0x20000400, 0x204 Bytes, ...)
T1284 000:586.734   Data:  01 98 68 21 40 5C 70 B1 FF E7 01 99 40 F2 6C 20 ...
T1284 000:586.749   CPU_WriteMem(516 bytes @ 0x20000400)
T1284 000:590.725 - 4.006ms returns 0x204
T1284 000:590.743 JLINK_HasError()
T1284 000:590.751 JLINK_WriteReg(R0, 0x08001400)
T1284 000:590.762 - 0.013ms returns 0
T1284 000:590.771 JLINK_WriteReg(R1, 0x00000400)
T1284 000:590.778 - 0.010ms returns 0
T1284 000:590.788 JLINK_WriteReg(R2, 0x20000204)
T1284 000:590.795 - 0.010ms returns 0
T1284 000:590.803 JLINK_WriteReg(R3, 0x00000000)
T1284 000:590.810 - 0.010ms returns 0
T1284 000:590.818 JLINK_WriteReg(R4, 0x00000000)
T1284 000:590.825 - 0.009ms returns 0
T1284 000:590.833 JLINK_WriteReg(R5, 0x00000000)
T1284 000:590.839 - 0.009ms returns 0
T1284 000:590.847 JLINK_WriteReg(R6, 0x00000000)
T1284 000:590.854 - 0.009ms returns 0
T1284 000:590.862 JLINK_WriteReg(R7, 0x00000000)
T1284 000:590.868 - 0.009ms returns 0
T1284 000:590.876 JLINK_WriteReg(R8, 0x00000000)
T1284 000:590.883 - 0.009ms returns 0
T1284 000:590.891 JLINK_WriteReg(R9, 0x20000200)
T1284 000:590.898 - 0.009ms returns 0
T1284 000:590.905 JLINK_WriteReg(R10, 0x00000000)
T1284 000:590.912 - 0.009ms returns 0
T1284 000:590.920 JLINK_WriteReg(R11, 0x00000000)
T1284 000:590.927 - 0.009ms returns 0
T1284 000:590.935 JLINK_WriteReg(R12, 0x00000000)
T1284 000:590.941 - 0.009ms returns 0
T1284 000:590.949 JLINK_WriteReg(R13 (SP), 0x20001000)
T1284 000:590.957 - 0.010ms returns 0
T1284 000:590.965 JLINK_WriteReg(R14, 0x20000001)
T1284 000:590.971 - 0.009ms returns 0
T1284 000:590.979 JLINK_WriteReg(R15 (PC), 0x20000164)
T1284 000:590.986 - 0.009ms returns 0
T1284 000:590.994 JLINK_WriteReg(XPSR, 0x01000000)
T1284 000:591.001 - 0.009ms returns 0
T1284 000:591.008 JLINK_WriteReg(MSP, 0x20001000)
T1284 000:591.015 - 0.009ms returns 0
T1284 000:591.023 JLINK_WriteReg(PSP, 0x20001000)
T1284 000:591.030 - 0.009ms returns 0
T1284 000:591.038 JLINK_WriteReg(CFBP, 0x00000000)
T1284 000:591.045 - 0.009ms returns 0
T1284 000:591.053 JLINK_SetBPEx(Addr = 0x20000000, Type = 0xFFFFFFF2)
T1284 000:591.060 - 0.010ms returns 0x0000000A
T1284 000:591.068 JLINK_Go()
T1284 000:591.077   CPU_WriteMem(4 bytes @ 0xE0002000)
T1284 000:591.378   CPU_ReadMem(4 bytes @ 0xE0001000)
T1284 000:591.663   CPU_WriteMem(4 bytes @ 0xE0001000)
T1284 000:594.818 - 3.760ms
T1284 000:594.839 JLINK_IsHalted()
T1284 000:595.118 - 0.287ms returns FALSE
T1284 000:595.135 JLINK_HasError()
T1284 000:597.328 JLINK_IsHalted()
T1284 000:597.618 - 0.298ms returns FALSE
T1284 000:597.633 JLINK_HasError()
T1284 000:599.332 JLINK_IsHalted()
T1284 000:599.633 - 0.308ms returns FALSE
T1284 000:599.648 JLINK_HasError()
T1284 000:601.337 JLINK_IsHalted()
T1284 000:601.629 - 0.299ms returns FALSE
T1284 000:601.643 JLINK_HasError()
T1284 000:603.342 JLINK_IsHalted()
T1284 000:603.633 - 0.298ms returns FALSE
T1284 000:603.648 JLINK_HasError()
T1284 000:605.350 JLINK_IsHalted()
T1284 000:605.645 - 0.303ms returns FALSE
T1284 000:605.660 JLINK_HasError()
T1284 000:607.351 JLINK_IsHalted()
T1284 000:607.648 - 0.305ms returns FALSE
T1284 000:607.663 JLINK_HasError()
T1284 000:609.753 JLINK_IsHalted()
T1284 000:612.761 - 3.016ms returns TRUE
T1284 000:612.776 JLINK_ReadReg(R15 (PC))
T1284 000:612.785   CPU_ReadMem(4 bytes @ 0xE000EE08)
T1284 000:613.092 - 0.325ms returns 0x20000000
T1284 000:613.107 JLINK_ClrBPEx(BPHandle = 0x0000000A)
T1284 000:613.116 - 0.011ms returns 0x00
T1284 000:613.123 JLINK_ReadReg(R0)
T1284 000:613.131 - 0.010ms returns 0x00000000
T1284 000:613.587 JLINK_WriteMem(0x20000204, 0x1FC Bytes, ...)
T1284 000:613.598   Data:  04 D9 FF E7 01 98 40 6A 00 90 FF E7 00 98 01 99 ...
T1284 000:613.613   CPU_WriteMem(508 bytes @ 0x20000204)
T1284 000:617.562 - 3.984ms returns 0x1FC
T1284 000:617.577 JLINK_WriteMem(0x20000400, 0x204 Bytes, ...)
T1284 000:617.584   Data:  00 78 80 00 08 58 09 6A 88 42 04 D2 FF E7 05 A9 ...
T1284 000:617.598   CPU_WriteMem(516 bytes @ 0x20000400)
T1284 000:621.560 - 3.990ms returns 0x204
T1284 000:621.577 JLINK_HasError()
T1284 000:621.585 JLINK_WriteReg(R0, 0x08001800)
T1284 000:621.595 - 0.013ms returns 0
T1284 000:621.604 JLINK_WriteReg(R1, 0x00000400)
T1284 000:621.612 - 0.010ms returns 0
T1284 000:621.619 JLINK_WriteReg(R2, 0x20000204)
T1284 000:621.625 - 0.009ms returns 0
T1284 000:621.633 JLINK_WriteReg(R3, 0x00000000)
T1284 000:621.640 - 0.009ms returns 0
T1284 000:621.648 JLINK_WriteReg(R4, 0x00000000)
T1284 000:621.655 - 0.009ms returns 0
T1284 000:621.662 JLINK_WriteReg(R5, 0x00000000)
T1284 000:621.669 - 0.009ms returns 0
T1284 000:621.677 JLINK_WriteReg(R6, 0x00000000)
T1284 000:621.684 - 0.009ms returns 0
T1284 000:621.691 JLINK_WriteReg(R7, 0x00000000)
T1284 000:621.698 - 0.009ms returns 0
T1284 000:621.706 JLINK_WriteReg(R8, 0x00000000)
T1284 000:621.712 - 0.009ms returns 0
T1284 000:621.720 JLINK_WriteReg(R9, 0x20000200)
T1284 000:621.727 - 0.009ms returns 0
T1284 000:621.735 JLINK_WriteReg(R10, 0x00000000)
T1284 000:621.741 - 0.009ms returns 0
T1284 000:621.749 JLINK_WriteReg(R11, 0x00000000)
T1284 000:621.756 - 0.009ms returns 0
T1284 000:621.763 JLINK_WriteReg(R12, 0x00000000)
T1284 000:621.770 - 0.009ms returns 0
T1284 000:621.779 JLINK_WriteReg(R13 (SP), 0x20001000)
T1284 000:621.786 - 0.010ms returns 0
T1284 000:621.795 JLINK_WriteReg(R14, 0x20000001)
T1284 000:621.802 - 0.009ms returns 0
T1284 000:621.809 JLINK_WriteReg(R15 (PC), 0x20000164)
T1284 000:621.816 - 0.009ms returns 0
T1284 000:621.824 JLINK_WriteReg(XPSR, 0x01000000)
T1284 000:621.831 - 0.009ms returns 0
T1284 000:621.839 JLINK_WriteReg(MSP, 0x20001000)
T1284 000:621.845 - 0.009ms returns 0
T1284 000:621.853 JLINK_WriteReg(PSP, 0x20001000)
T1284 000:621.860 - 0.009ms returns 0
T1284 000:621.868 JLINK_WriteReg(CFBP, 0x00000000)
T1284 000:621.875 - 0.009ms returns 0
T1284 000:621.883 JLINK_SetBPEx(Addr = 0x20000000, Type = 0xFFFFFFF2)
T1284 000:621.890 - 0.010ms returns 0x0000000B
T1284 000:621.898 JLINK_Go()
T1284 000:621.906   CPU_WriteMem(4 bytes @ 0xE0002000)
T1284 000:622.216   CPU_ReadMem(4 bytes @ 0xE0001000)
T1284 000:622.501   CPU_WriteMem(4 bytes @ 0xE0001000)
T1284 000:625.683 - 3.793ms
T1284 000:625.699 JLINK_IsHalted()
T1284 000:625.991 - 0.299ms returns FALSE
T1284 000:626.007 JLINK_HasError()
T1284 000:627.093 JLINK_IsHalted()
T1284 000:627.382 - 0.296ms returns FALSE
T1284 000:627.399 JLINK_HasError()
T1284 000:629.110 JLINK_IsHalted()
T1284 000:629.418 - 0.316ms returns FALSE
T1284 000:629.433 JLINK_HasError()
T1284 000:631.103 JLINK_IsHalted()
T1284 000:631.384 - 0.288ms returns FALSE
T1284 000:631.398 JLINK_HasError()
T1284 000:633.108 JLINK_IsHalted()
T1284 000:633.409 - 0.309ms returns FALSE
T1284 000:633.424 JLINK_HasError()
T1284 000:635.140 JLINK_IsHalted()
T1284 000:635.451 - 0.319ms returns FALSE
T1284 000:635.466 JLINK_HasError()
T1284 000:637.119 JLINK_IsHalted()
T1284 000:637.413 - 0.302ms returns FALSE
T1284 000:637.428 JLINK_HasError()
T1284 000:639.124 JLINK_IsHalted()
T1284 000:639.416 - 0.300ms returns FALSE
T1284 000:639.431 JLINK_HasError()
T1284 000:641.129 JLINK_IsHalted()
T1284 000:644.152 - 3.031ms returns TRUE
T1284 000:644.167 JLINK_ReadReg(R15 (PC))
T1284 000:644.176   CPU_ReadMem(4 bytes @ 0xE000EE08)
T1284 000:644.465 - 0.307ms returns 0x20000000
T1284 000:644.480 JLINK_ClrBPEx(BPHandle = 0x0000000B)
T1284 000:644.489 - 0.011ms returns 0x00
T1284 000:644.496 JLINK_ReadReg(R0)
T1284 000:644.504 - 0.010ms returns 0x00000000
T1284 000:644.951 JLINK_WriteMem(0x20000204, 0x1FC Bytes, ...)
T1284 000:644.962   Data:  91 42 28 90 01 D9 2C 98 28 90 27 99 29 9A 28 9B ...
T1284 000:644.976   CPU_WriteMem(508 bytes @ 0x20000204)
T1284 000:648.904 - 3.960ms returns 0x1FC
T1284 000:648.918 JLINK_WriteMem(0x20000400, 0x204 Bytes, ...)
T1284 000:648.925   Data:  10 9A 26 9D 11 9C D1 5C 64 00 29 40 09 19 D1 54 ...
T1284 000:648.939   CPU_WriteMem(516 bytes @ 0x20000400)
T1284 000:652.904 - 3.994ms returns 0x204
T1284 000:652.921 JLINK_HasError()
T1284 000:652.929 JLINK_WriteReg(R0, 0x08001C00)
T1284 000:652.939 - 0.013ms returns 0
T1284 000:652.949 JLINK_WriteReg(R1, 0x00000400)
T1284 000:652.956 - 0.009ms returns 0
T1284 000:652.963 JLINK_WriteReg(R2, 0x20000204)
